T697C 000:006.340   SEGGER J-Link V7.86h Log File
T697C 000:006.521   DLL Compiled: Apr 12 2023 16:04:37
T697C 000:006.543   Logging started @ 2023-04-22 11:26
T697C 000:006.565 - 6.575ms
T697C 000:006.593 JLINK_SetWarnOutHandler(...)
T697C 000:006.616 - 0.033ms
T697C 000:006.638 JLINK_OpenEx(...)
T697C 000:008.675   Firmware: J-Link V9 compiled May  7 2021 16:26:12
T697C 000:009.157   Firmware: J-Link V9 compiled May  7 2021 16:26:12
T697C 000:009.443   Decompressing FW timestamp took 194 us
T697C 000:015.878   Hardware: V9.20
T697C 000:015.962   S/N: 4294967295
T697C 000:015.992   OEM: SEGGER
T697C 000:016.015   Feature(s): None
T697C 000:016.942   TELNET listener socket opened on port 19021
T697C 000:017.083   WEBSRV WEBSRV_Init(): Starting webserver thread(s)
T697C 000:017.406   WEBSRV Webserver running on local port 19080
T697C 000:025.883 - 19.274ms returns "O.K."
T697C 000:025.945 JLINK_GetEmuCaps()
T697C 000:025.962 - 0.024ms returns 0xB9FF7BBF
T697C 000:025.981 JLINK_TIF_GetAvailable(...)
T697C 000:026.142 - 0.172ms
T697C 000:026.163 JLINK_SetErrorOutHandler(...)
T697C 000:026.179 - 0.022ms
T697C 000:026.212 JLINK_ExecCommand("ProjectFile = "D:\workspace\robot\code\robot4.22-maxspeed\USER\JLinkSettings.ini"", ...). 
T697C 000:039.076   Ref file found at: D:\kile\ARM\Segger\JLinkDevices.ref
T697C 000:039.207   REF file references invalid XML file: D:\Program Files\SEGGER\JLink\JLinkDevices.xml
T697C 000:039.477 - 13.277ms returns 0x00
T697C 000:043.360 JLINK_ExecCommand("Device = STM32F103ZE", ...). 
T697C 000:045.925   Device "STM32F103ZE" selected.
T697C 000:046.580 - 3.196ms returns 0x00
T697C 000:046.606 JLINK_ExecCommand("DisableConnectionTimeout", ...). 
T697C 000:046.624 - 0.009ms returns 0x01
T697C 000:046.641 JLINK_GetHardwareVersion()
T697C 000:046.656 - 0.022ms returns 92000
T697C 000:046.681 JLINK_GetDLLVersion()
T697C 000:046.697 - 0.023ms returns 78608
T697C 000:046.713 JLINK_GetOEMString(...)
T697C 000:046.730 JLINK_GetFirmwareString(...)
T697C 000:046.744 - 0.021ms
T697C 000:053.227 JLINK_GetDLLVersion()
T697C 000:053.271 - 0.052ms returns 78608
T697C 000:053.288 JLINK_GetCompileDateTime()
T697C 000:053.303 - 0.022ms
T697C 000:056.435 JLINK_GetFirmwareString(...)
T697C 000:056.473 - 0.046ms
T697C 000:058.861 JLINK_GetHardwareVersion()
T697C 000:058.981 - 0.150ms returns 92000
T697C 000:061.240 JLINK_GetSN()
T697C 000:061.274 - 0.041ms returns -1
T697C 000:061.290 JLINK_GetOEMString(...)
T697C 000:063.253 JLINK_TIF_Select(JLINKARM_TIF_SWD)
T697C 000:064.149 - 0.911ms returns 0x00
T697C 000:064.175 JLINK_HasError()
T697C 000:064.205 JLINK_SetSpeed(5000)
T697C 000:064.405 - 0.214ms
T697C 000:064.429 JLINK_GetId()
T697C 000:066.767   InitTarget() start
T697C 000:066.801    J-Link Script File: Executing InitTarget()
T697C 000:069.169   SWD selected. Executing JTAG -> SWD switching sequence.
T697C 000:074.739   DAP initialized successfully.
T697C 000:082.332   InitTarget() end - Took 12.9ms
T697C 000:084.928   Found SW-DP with ID 0x1BA01477
T697C 000:090.449   DPIDR: 0x1BA01477
T697C 000:092.871   CoreSight SoC-400 or earlier
T697C 000:095.104   Scanning AP map to find all available APs
T697C 000:098.106   AP[1]: Stopped AP scan as end of AP map has been reached
T697C 000:100.292   AP[0]: AHB-AP (IDR: 0x14770011)
T697C 000:105.646   Iterating through AP map to find AHB-AP to use
T697C 000:109.251   AP[0]: Core found
T697C 000:111.746   AP[0]: AHB-AP ROM base: 0xE00FF000
T697C 000:114.721   CPUID register: 0x411FC231. Implementer code: 0x41 (ARM)
T697C 000:116.785   Found Cortex-M3 r1p1, Little endian.
T697C 000:117.174   -- Max. mem block: 0x00010E60
T697C 000:117.885   CPU_ReadMem(4 bytes @ 0xE000EDF0)
T697C 000:118.162   CPU_ReadMem(4 bytes @ 0xE0002000)
T697C 000:120.838   FPUnit: 6 code (BP) slots and 2 literal slots
T697C 000:120.878   CPU_ReadMem(4 bytes @ 0xE000EDFC)
T697C 000:121.254   CPU_WriteMem(4 bytes @ 0xE000EDFC)
T697C 000:121.646   CPU_ReadMem(4 bytes @ 0xE0001000)
T697C 000:122.032   CPU_WriteMem(4 bytes @ 0xE0001000)
T697C 000:122.490   CPU_ReadMem(4 bytes @ 0xE000ED88)
T697C 000:123.144   CPU_WriteMem(4 bytes @ 0xE000ED88)
T697C 000:123.570   CPU_ReadMem(4 bytes @ 0xE000ED88)
T697C 000:123.985   CPU_WriteMem(4 bytes @ 0xE000ED88)
T697C 000:127.070   CoreSight components:
T697C 000:129.336   ROMTbl[0] @ E00FF000
T697C 000:129.382   CPU_ReadMem(64 bytes @ 0xE00FF000)
T697C 000:130.251   CPU_ReadMem(32 bytes @ 0xE000EFE0)
T697C 000:134.662   [0][0]: E000E000 CID B105E00D PID 001BB000 SCS
T697C 000:134.741   CPU_ReadMem(32 bytes @ 0xE0001FE0)
T697C 000:137.570   [0][1]: E0001000 CID B105E00D PID 001BB002 DWT
T697C 000:137.608   CPU_ReadMem(32 bytes @ 0xE0002FE0)
T697C 000:140.891   [0][2]: E0002000 CID B105E00D PID 000BB003 FPB
T697C 000:140.947   CPU_ReadMem(32 bytes @ 0xE0000FE0)
T697C 000:144.082   [0][3]: E0000000 CID B105E00D PID 001BB001 ITM
T697C 000:144.135   CPU_ReadMem(32 bytes @ 0xE0040FE0)
T697C 000:147.283   [0][4]: E0040000 CID B105900D PID 001BB923 TPIU-Lite
T697C 000:147.337   CPU_ReadMem(32 bytes @ 0xE0041FE0)
T697C 000:151.631   [0][5]: E0041000 CID B105900D PID 101BB924 ETM-M3
T697C 000:151.956 - 87.541ms returns 0x1BA01477
T697C 000:151.986 JLINK_GetDLLVersion()
T697C 000:152.001 - 0.022ms returns 78608
T697C 000:152.017 JLINK_CORE_GetFound()
T697C 000:152.031 - 0.021ms returns 0x30000FF
T697C 000:152.053 JLINK_GetDebugInfo(0x100 = JLINKARM_ROM_TABLE_ADDR_INDEX)
T697C 000:152.069   Value=0xE00FF000
T697C 000:152.090 - 0.043ms returns 0
T697C 000:154.273 JLINK_GetDebugInfo(0x100 = JLINKARM_ROM_TABLE_ADDR_INDEX)
T697C 000:154.297   Value=0xE00FF000
T697C 000:154.318 - 0.051ms returns 0
T697C 000:154.332 JLINK_GetDebugInfo(0x101 = JLINKARM_DEBUG_INFO_ETM_ADDR_INDEX)
T697C 000:154.346   Value=0xE0041000
T697C 000:154.366 - 0.040ms returns 0
T697C 000:154.381 JLINK_ReadMemEx(0xE0041FD0, 0x20 Bytes, Flags = 0x02000004)
T697C 000:154.415   CPU_ReadMem(32 bytes @ 0xE0041FD0)
T697C 000:155.147   Data:  04 00 00 00 00 00 00 00 00 00 00 00 00 00 00 00 ...
T697C 000:155.196 - 0.822ms returns 32 (0x20)
T697C 000:155.215 JLINK_GetDebugInfo(0x102 = JLINKARM_DEBUG_INFO_MTB_ADDR_INDEX)
T697C 000:155.230   Value=0x00000000
T697C 000:155.250 - 0.042ms returns 0
T697C 000:155.264 JLINK_GetDebugInfo(0x103 = JLINKARM_DEBUG_INFO_TPIU_ADDR_INDEX)
T697C 000:155.279   Value=0xE0040000
T697C 000:155.299 - 0.041ms returns 0
T697C 000:155.313 JLINK_GetDebugInfo(0x104 = JLINKARM_DEBUG_INFO_ITM_ADDR_INDEX)
T697C 000:155.328   Value=0xE0000000
T697C 000:155.348 - 0.041ms returns 0
T697C 000:155.361 JLINK_GetDebugInfo(0x105 = JLINKARM_DEBUG_INFO_DWT_ADDR_INDEX)
T697C 000:155.376   Value=0xE0001000
T697C 000:155.395 - 0.040ms returns 0
T697C 000:155.410 JLINK_GetDebugInfo(0x106 = JLINKARM_DEBUG_INFO_FPB_ADDR_INDEX)
T697C 000:155.423   Value=0xE0002000
T697C 000:155.443 - 0.040ms returns 0
T697C 000:155.457 JLINK_GetDebugInfo(0x107 = JLINKARM_DEBUG_INFO_NVIC_ADDR_INDEX)
T697C 000:155.471   Value=0xE000E000
T697C 000:155.491 - 0.040ms returns 0
T697C 000:155.505 JLINK_GetDebugInfo(0x10C = JLINKARM_DEBUG_INFO_DBG_ADDR_INDEX)
T697C 000:155.518   Value=0xE000EDF0
T697C 000:155.538 - 0.040ms returns 0
T697C 000:155.553 JLINK_ReadMemU32(0xE000ED00, 0x1 Items)
T697C 000:155.575   CPU_ReadMem(4 bytes @ 0xE000ED00)
T697C 000:156.228   Data:  31 C2 1F 41
T697C 000:156.276   Debug reg: CPUID
T697C 000:156.297 - 0.751ms returns 1 (0x1)
T697C 000:156.315 JLINK_GetDebugInfo(0x10F = JLINKARM_DEBUG_INFO_HAS_CORTEX_M_SECURITY_EXT_INDEX)
T697C 000:156.330   Value=0x00000000
T697C 000:156.350 - 0.041ms returns 0
T697C 000:156.365 JLINK_HasError()
T697C 000:156.380 JLINK_SetResetType(JLINKARM_CM3_RESET_TYPE_NORMAL)
T697C 000:156.395 - 0.020ms returns JLINKARM_CM3_RESET_TYPE_NORMAL
T697C 000:156.409 JLINK_Reset()
T697C 000:156.452   CPU is running
T697C 000:156.476   CPU_WriteMem(4 bytes @ 0xE000EDF0)
T697C 000:157.117   CPU is running
T697C 000:157.185   CPU_WriteMem(4 bytes @ 0xE000EDFC)
T697C 000:160.846   Reset: Halt core after reset via DEMCR.VC_CORERESET.
T697C 000:163.652   Reset: Reset device via AIRCR.SYSRESETREQ.
T697C 000:163.699   CPU is running
T697C 000:163.723   CPU_WriteMem(4 bytes @ 0xE000ED0C)
T697C 000:217.693   CPU_ReadMem(4 bytes @ 0xE000EDF0)
T697C 000:218.429   CPU_ReadMem(4 bytes @ 0xE000EDF0)
T697C 000:221.043   CPU_WriteMem(4 bytes @ 0xE000EDFC)
T697C 000:226.949   CPU_ReadMem(4 bytes @ 0xE000EDF0)
T697C 000:229.997   CPU_WriteMem(4 bytes @ 0xE0002000)
T697C 000:230.553   CPU_ReadMem(4 bytes @ 0xE000EDFC)
T697C 000:231.099   CPU_ReadMem(4 bytes @ 0xE0001000)
T697C 000:232.045 - 75.697ms
T697C 000:232.145 JLINK_Halt()
T697C 000:232.181 - 0.051ms returns 0x00
T697C 000:232.220 JLINK_ReadMemU32(0xE000EDF0, 0x1 Items)
T697C 000:232.268   CPU_ReadMem(4 bytes @ 0xE000EDF0)
T697C 000:232.767   Data:  03 00 03 00
T697C 000:232.847   Debug reg: DHCSR
T697C 000:232.895 - 0.690ms returns 1 (0x1)
T697C 000:232.955 JLINK_WriteU32_64(0xE000EDF0, 0xA05F0003)
T697C 000:232.995   Debug reg: DHCSR
T697C 000:233.516   CPU_WriteMem(4 bytes @ 0xE000EDF0)
T697C 000:234.037 - 1.125ms returns 0 (0x00000000)
T697C 000:234.112 JLINK_WriteU32_64(0xE000EDFC, 0x01000000)
T697C 000:234.149   Debug reg: DEMCR
T697C 000:234.210   CPU_WriteMem(4 bytes @ 0xE000EDFC)
T697C 000:234.722 - 0.662ms returns 0 (0x00000000)
T697C 000:253.112 JLINK_GetHWStatus(...)
T697C 000:253.423 - 0.339ms returns 0
T697C 000:265.909 JLINK_GetNumBPUnits(Type = 0xFFFFFF00)
T697C 000:265.947 - 0.046ms returns 0x06
T697C 000:265.964 JLINK_GetNumBPUnits(Type = 0xF0)
T697C 000:265.979 - 0.022ms returns 0x2000
T697C 000:265.995 JLINK_GetNumWPUnits()
T697C 000:266.010 - 0.021ms returns 4
T697C 000:272.155 JLINK_GetSpeed()
T697C 000:272.188 - 0.039ms returns 4000
T697C 000:277.759 JLINK_ReadMemU32(0xE000E004, 0x1 Items)
T697C 000:277.812   CPU_ReadMem(4 bytes @ 0xE000E004)
T697C 000:278.224   Data:  01 00 00 00
T697C 000:278.254 - 0.502ms returns 1 (0x1)
T697C 000:278.271 JLINK_ReadMemU32(0xE000E004, 0x1 Items)
T697C 000:278.289   CPU_ReadMem(4 bytes @ 0xE000E004)
T697C 000:278.649   Data:  01 00 00 00
T697C 000:278.694 - 0.430ms returns 1 (0x1)
T697C 000:278.711 JLINK_WriteMemEx(0xE0001000, 0x0000001C Bytes, Flags = 0x02000004)
T697C 000:278.726   Data:  01 00 00 00 00 00 00 00 00 00 00 00 00 00 00 00 ...
T697C 000:278.753   CPU_WriteMem(28 bytes @ 0xE0001000)
T697C 000:279.263 - 0.566ms returns 0x1C
T697C 000:279.290 JLINK_Halt()
T697C 000:279.305 - 0.022ms returns 0x00
T697C 000:279.320 JLINK_IsHalted()
T697C 000:279.335 - 0.021ms returns TRUE
T697C 000:282.819 JLINK_WriteMem(0x20000000, 0x164 Bytes, ...)
T697C 000:282.842   Data:  00 BE 0A E0 0D 78 2D 06 68 40 08 24 40 00 00 D3 ...
T697C 000:283.035   CPU_WriteMem(356 bytes @ 0x20000000)
T697C 000:285.370 - 2.605ms returns 0x164
T697C 000:285.528 JLINK_HasError()
T697C 000:285.550 JLINK_WriteReg(R0, 0x08000000)
T697C 000:285.569 - 0.025ms returns 0
T697C 000:285.584 JLINK_WriteReg(R1, 0x00B71B00)
T697C 000:285.599 - 0.022ms returns 0
T697C 000:285.614 JLINK_WriteReg(R2, 0x00000001)
T697C 000:285.628 - 0.022ms returns 0
T697C 000:285.644 JLINK_WriteReg(R3, 0x00000000)
T697C 000:285.659 - 0.022ms returns 0
T697C 000:285.674 JLINK_WriteReg(R4, 0x00000000)
T697C 000:285.689 - 0.021ms returns 0
T697C 000:285.703 JLINK_WriteReg(R5, 0x00000000)
T697C 000:285.717 - 0.021ms returns 0
T697C 000:285.733 JLINK_WriteReg(R6, 0x00000000)
T697C 000:285.747 - 0.021ms returns 0
T697C 000:285.761 JLINK_WriteReg(R7, 0x00000000)
T697C 000:285.776 - 0.022ms returns 0
T697C 000:285.791 JLINK_WriteReg(R8, 0x00000000)
T697C 000:285.822 - 0.037ms returns 0
T697C 000:285.837 JLINK_WriteReg(R9, 0x20000160)
T697C 000:285.851 - 0.021ms returns 0
T697C 000:285.867 JLINK_WriteReg(R10, 0x00000000)
T697C 000:285.881 - 0.021ms returns 0
T697C 000:285.896 JLINK_WriteReg(R11, 0x00000000)
T697C 000:285.910 - 0.021ms returns 0
T697C 000:285.924 JLINK_WriteReg(R12, 0x00000000)
T697C 000:285.939 - 0.021ms returns 0
T697C 000:285.954 JLINK_WriteReg(R13 (SP), 0x20001000)
T697C 000:285.969 - 0.023ms returns 0
T697C 000:285.985 JLINK_WriteReg(R14, 0x20000001)
T697C 000:286.002 - 0.026ms returns 0
T697C 000:286.019 JLINK_WriteReg(R15 (PC), 0x20000038)
T697C 000:286.039 - 0.027ms returns 0
T697C 000:286.054 JLINK_WriteReg(XPSR, 0x01000000)
T697C 000:286.069 - 0.022ms returns 0
T697C 000:286.084 JLINK_WriteReg(MSP, 0x20001000)
T697C 000:286.099 - 0.022ms returns 0
T697C 000:286.114 JLINK_WriteReg(PSP, 0x20001000)
T697C 000:286.128 - 0.021ms returns 0
T697C 000:286.143 JLINK_WriteReg(CFBP, 0x00000000)
T697C 000:286.157 - 0.020ms returns 0
T697C 000:286.172 JLINK_SetBPEx(Addr = 0x20000000, Type = 0xFFFFFFF2)
T697C 000:286.192   CPU_ReadMem(2 bytes @ 0x20000000)
T697C 000:286.881 - 0.744ms returns 0x00000001
T697C 000:286.929 JLINK_Go()
T697C 000:286.950   CPU_WriteMem(2 bytes @ 0x20000000)
T697C 000:287.395   CPU_ReadMem(4 bytes @ 0xE0001000)
T697C 000:288.057   CPU_WriteMem(4 bytes @ 0xE0002008)
T697C 000:288.108   CPU_WriteMem(4 bytes @ 0xE000200C)
T697C 000:288.130   CPU_WriteMem(4 bytes @ 0xE0002010)
T697C 000:288.150   CPU_WriteMem(4 bytes @ 0xE0002014)
T697C 000:288.172   CPU_WriteMem(4 bytes @ 0xE0002018)
T697C 000:288.193   CPU_WriteMem(4 bytes @ 0xE000201C)
T697C 000:289.332   CPU_WriteMem(4 bytes @ 0xE0001004)
T697C 000:291.936 - 5.050ms
T697C 000:292.035 JLINK_IsHalted()
T697C 000:294.200   CPU_ReadMem(2 bytes @ 0x20000000)
T697C 000:294.693 - 2.672ms returns TRUE
T697C 000:294.718 JLINK_ReadReg(R15 (PC))
T697C 000:294.736 - 0.024ms returns 0x20000000
T697C 000:294.751 JLINK_ClrBPEx(BPHandle = 0x00000001)
T697C 000:294.767 - 0.022ms returns 0x00
T697C 000:294.782 JLINK_ReadReg(R0)
T697C 000:294.797 - 0.021ms returns 0x00000000
T697C 000:295.046 JLINK_HasError()
T697C 000:295.068 JLINK_WriteReg(R0, 0x08000000)
T697C 000:295.083 - 0.023ms returns 0
T697C 000:295.099 JLINK_WriteReg(R1, 0x00B71B00)
T697C 000:295.113 - 0.021ms returns 0
T697C 000:295.128 JLINK_WriteReg(R2, 0x00000001)
T697C 000:295.142 - 0.021ms returns 0
T697C 000:295.157 JLINK_WriteReg(R3, 0x00000000)
T697C 000:295.171 - 0.021ms returns 0
T697C 000:295.186 JLINK_WriteReg(R4, 0x00000000)
T697C 000:295.200 - 0.021ms returns 0
T697C 000:295.215 JLINK_WriteReg(R5, 0x00000000)
T697C 000:295.229 - 0.021ms returns 0
T697C 000:295.243 JLINK_WriteReg(R6, 0x00000000)
T697C 000:295.258 - 0.021ms returns 0
T697C 000:295.273 JLINK_WriteReg(R7, 0x00000000)
T697C 000:295.289 - 0.023ms returns 0
T697C 000:295.304 JLINK_WriteReg(R8, 0x00000000)
T697C 000:295.318 - 0.021ms returns 0
T697C 000:295.332 JLINK_WriteReg(R9, 0x20000160)
T697C 000:295.346 - 0.020ms returns 0
T697C 000:295.361 JLINK_WriteReg(R10, 0x00000000)
T697C 000:295.375 - 0.021ms returns 0
T697C 000:295.390 JLINK_WriteReg(R11, 0x00000000)
T697C 000:295.404 - 0.022ms returns 0
T697C 000:295.419 JLINK_WriteReg(R12, 0x00000000)
T697C 000:295.433 - 0.021ms returns 0
T697C 000:295.449 JLINK_WriteReg(R13 (SP), 0x20001000)
T697C 000:295.463 - 0.021ms returns 0
T697C 000:295.478 JLINK_WriteReg(R14, 0x20000001)
T697C 000:295.493 - 0.021ms returns 0
T697C 000:295.507 JLINK_WriteReg(R15 (PC), 0x2000007C)
T697C 000:295.522 - 0.021ms returns 0
T697C 000:295.536 JLINK_WriteReg(XPSR, 0x01000000)
T697C 000:295.551 - 0.021ms returns 0
T697C 000:295.565 JLINK_WriteReg(MSP, 0x20001000)
T697C 000:295.579 - 0.020ms returns 0
T697C 000:295.594 JLINK_WriteReg(PSP, 0x20001000)
T697C 000:295.608 - 0.021ms returns 0
T697C 000:295.623 JLINK_WriteReg(CFBP, 0x00000000)
T697C 000:295.638 - 0.021ms returns 0
T697C 000:295.652 JLINK_SetBPEx(Addr = 0x20000000, Type = 0xFFFFFFF2)
T697C 000:295.667 - 0.022ms returns 0x00000002
T697C 000:295.683 JLINK_Go()
T697C 000:295.703   CPU_ReadMem(4 bytes @ 0xE0001000)
T697C 000:298.142 - 2.516ms
T697C 000:298.218 JLINK_IsHalted()
T697C 000:298.627 - 0.452ms returns FALSE
T697C 000:298.683 JLINK_HasError()
T697C 000:312.031 JLINK_IsHalted()
T697C 000:312.314 - 0.295ms returns FALSE
T697C 000:312.337 JLINK_HasError()
T697C 000:314.023 JLINK_IsHalted()
T697C 000:314.263 - 0.250ms returns FALSE
T697C 000:314.283 JLINK_HasError()
T697C 000:316.030 JLINK_IsHalted()
T697C 000:316.336 - 0.322ms returns FALSE
T697C 000:316.364 JLINK_HasError()
T697C 000:318.029 JLINK_IsHalted()
T697C 000:318.290 - 0.276ms returns FALSE
T697C 000:318.316 JLINK_HasError()
T697C 000:319.957 JLINK_IsHalted()
T697C 000:320.279 - 0.340ms returns FALSE
T697C 000:320.314 JLINK_HasError()
T697C 000:321.947 JLINK_IsHalted()
T697C 000:323.837   CPU_ReadMem(2 bytes @ 0x20000000)
T697C 000:324.119 - 2.189ms returns TRUE
T697C 000:324.148 JLINK_ReadReg(R15 (PC))
T697C 000:324.169 - 0.028ms returns 0x20000000
T697C 000:324.186 JLINK_ClrBPEx(BPHandle = 0x00000002)
T697C 000:324.203 - 0.024ms returns 0x00
T697C 000:324.221 JLINK_ReadReg(R0)
T697C 000:324.238 - 0.024ms returns 0x00000000
T697C 000:376.002 JLINK_HasError()
T697C 000:376.063 JLINK_WriteReg(R0, 0x00000001)
T697C 000:376.091 - 0.039ms returns 0
T697C 000:376.116 JLINK_WriteReg(R1, 0x00B71B00)
T697C 000:376.139 - 0.033ms returns 0
T697C 000:376.162 JLINK_WriteReg(R2, 0x00000001)
T697C 000:376.185 - 0.035ms returns 0
T697C 000:376.209 JLINK_WriteReg(R3, 0x00000000)
T697C 000:376.232 - 0.033ms returns 0
T697C 000:376.255 JLINK_WriteReg(R4, 0x00000000)
T697C 000:376.277 - 0.033ms returns 0
T697C 000:376.301 JLINK_WriteReg(R5, 0x00000000)
T697C 000:376.323 - 0.032ms returns 0
T697C 000:376.346 JLINK_WriteReg(R6, 0x00000000)
T697C 000:376.369 - 0.033ms returns 0
T697C 000:376.391 JLINK_WriteReg(R7, 0x00000000)
T697C 000:376.414 - 0.033ms returns 0
T697C 000:376.437 JLINK_WriteReg(R8, 0x00000000)
T697C 000:376.459 - 0.033ms returns 0
T697C 000:376.483 JLINK_WriteReg(R9, 0x20000160)
T697C 000:376.534 - 0.061ms returns 0
T697C 000:376.558 JLINK_WriteReg(R10, 0x00000000)
T697C 000:376.581 - 0.034ms returns 0
T697C 000:376.604 JLINK_WriteReg(R11, 0x00000000)
T697C 000:376.627 - 0.034ms returns 0
T697C 000:376.651 JLINK_WriteReg(R12, 0x00000000)
T697C 000:376.673 - 0.034ms returns 0
T697C 000:376.697 JLINK_WriteReg(R13 (SP), 0x20001000)
T697C 000:376.720 - 0.034ms returns 0
T697C 000:376.743 JLINK_WriteReg(R14, 0x20000001)
T697C 000:376.766 - 0.033ms returns 0
T697C 000:376.788 JLINK_WriteReg(R15 (PC), 0x2000006A)
T697C 000:376.812 - 0.034ms returns 0
T697C 000:376.834 JLINK_WriteReg(XPSR, 0x01000000)
T697C 000:376.857 - 0.034ms returns 0
T697C 000:376.881 JLINK_WriteReg(MSP, 0x20001000)
T697C 000:376.903 - 0.033ms returns 0
T697C 000:376.927 JLINK_WriteReg(PSP, 0x20001000)
T697C 000:376.950 - 0.033ms returns 0
T697C 000:376.972 JLINK_WriteReg(CFBP, 0x00000000)
T697C 000:376.995 - 0.034ms returns 0
T697C 000:377.019 JLINK_SetBPEx(Addr = 0x20000000, Type = 0xFFFFFFF2)
T697C 000:377.043 - 0.035ms returns 0x00000003
T697C 000:377.066 JLINK_Go()
T697C 000:377.101   CPU_ReadMem(4 bytes @ 0xE0001000)
T697C 000:379.711 - 2.693ms
T697C 000:379.781 JLINK_IsHalted()
T697C 000:382.391   CPU_ReadMem(2 bytes @ 0x20000000)
T697C 000:382.880 - 3.140ms returns TRUE
T697C 000:382.943 JLINK_ReadReg(R15 (PC))
T697C 000:382.991 - 0.065ms returns 0x20000000
T697C 000:383.025 JLINK_ClrBPEx(BPHandle = 0x00000003)
T697C 000:383.057 - 0.047ms returns 0x00
T697C 000:383.092 JLINK_ReadReg(R0)
T697C 000:383.124 - 0.046ms returns 0x00000000
T697C 000:392.498 JLINK_WriteMem(0x20000000, 0x164 Bytes, ...)
T697C 000:392.526   Data:  00 BE 0A E0 0D 78 2D 06 68 40 08 24 40 00 00 D3 ...
T697C 000:392.560   CPU_WriteMem(356 bytes @ 0x20000000)
T697C 000:394.198 - 1.711ms returns 0x164
T697C 000:394.236 JLINK_HasError()
T697C 000:394.255 JLINK_WriteReg(R0, 0x08000000)
T697C 000:394.272 - 0.024ms returns 0
T697C 000:394.288 JLINK_WriteReg(R1, 0x00B71B00)
T697C 000:394.304 - 0.023ms returns 0
T697C 000:394.319 JLINK_WriteReg(R2, 0x00000002)
T697C 000:394.335 - 0.022ms returns 0
T697C 000:394.350 JLINK_WriteReg(R3, 0x00000000)
T697C 000:394.365 - 0.022ms returns 0
T697C 000:394.381 JLINK_WriteReg(R4, 0x00000000)
T697C 000:394.396 - 0.022ms returns 0
T697C 000:394.411 JLINK_WriteReg(R5, 0x00000000)
T697C 000:394.427 - 0.023ms returns 0
T697C 000:394.442 JLINK_WriteReg(R6, 0x00000000)
T697C 000:394.458 - 0.023ms returns 0
T697C 000:394.514 JLINK_WriteReg(R7, 0x00000000)
T697C 000:394.533 - 0.027ms returns 0
T697C 000:394.550 JLINK_WriteReg(R8, 0x00000000)
T697C 000:394.565 - 0.022ms returns 0
T697C 000:394.580 JLINK_WriteReg(R9, 0x20000160)
T697C 000:394.596 - 0.023ms returns 0
T697C 000:394.611 JLINK_WriteReg(R10, 0x00000000)
T697C 000:394.627 - 0.023ms returns 0
T697C 000:394.642 JLINK_WriteReg(R11, 0x00000000)
T697C 000:394.657 - 0.022ms returns 0
T697C 000:394.673 JLINK_WriteReg(R12, 0x00000000)
T697C 000:394.688 - 0.022ms returns 0
T697C 000:394.703 JLINK_WriteReg(R13 (SP), 0x20001000)
T697C 000:394.720 - 0.024ms returns 0
T697C 000:394.736 JLINK_WriteReg(R14, 0x20000001)
T697C 000:394.751 - 0.023ms returns 0
T697C 000:394.767 JLINK_WriteReg(R15 (PC), 0x20000038)
T697C 000:394.781 - 0.022ms returns 0
T697C 000:394.798 JLINK_WriteReg(XPSR, 0x01000000)
T697C 000:394.813 - 0.022ms returns 0
T697C 000:394.828 JLINK_WriteReg(MSP, 0x20001000)
T697C 000:394.844 - 0.023ms returns 0
T697C 000:394.860 JLINK_WriteReg(PSP, 0x20001000)
T697C 000:394.875 - 0.023ms returns 0
T697C 000:394.891 JLINK_WriteReg(CFBP, 0x00000000)
T697C 000:394.905 - 0.022ms returns 0
T697C 000:394.922 JLINK_SetBPEx(Addr = 0x20000000, Type = 0xFFFFFFF2)
T697C 000:394.940   CPU_ReadMem(2 bytes @ 0x20000000)
T697C 000:395.258 - 0.359ms returns 0x00000004
T697C 000:395.291 JLINK_Go()
T697C 000:395.307   CPU_WriteMem(2 bytes @ 0x20000000)
T697C 000:395.611   CPU_ReadMem(4 bytes @ 0xE0001000)
T697C 000:397.932 - 2.651ms
T697C 000:397.951 JLINK_IsHalted()
T697C 000:399.955   CPU_ReadMem(2 bytes @ 0x20000000)
T697C 000:400.372 - 2.444ms returns TRUE
T697C 000:400.407 JLINK_ReadReg(R15 (PC))
T697C 000:400.425 - 0.025ms returns 0x20000000
T697C 000:400.440 JLINK_ClrBPEx(BPHandle = 0x00000004)
T697C 000:400.456 - 0.023ms returns 0x00
T697C 000:400.471 JLINK_ReadReg(R0)
T697C 000:400.488 - 0.047ms returns 0x00000000
T697C 000:401.605 JLINK_WriteMem(0x20000164, 0x29C Bytes, ...)
T697C 000:401.633   Data:  48 05 00 20 15 16 00 08 55 01 00 08 57 01 00 08 ...
T697C 000:401.662   CPU_WriteMem(668 bytes @ 0x20000164)
T697C 000:404.199 - 2.611ms returns 0x29C
T697C 000:404.229 JLINK_WriteMem(0x20000400, 0x164 Bytes, ...)
T697C 000:404.244   Data:  FE 00 48 60 4F F4 1F 00 88 60 FF F7 DA FF 4F F0 ...
T697C 000:404.271   CPU_WriteMem(356 bytes @ 0x20000400)
T697C 000:406.246 - 2.057ms returns 0x164
T697C 000:406.300 JLINK_HasError()
T697C 000:406.318 JLINK_WriteReg(R0, 0x08000000)
T697C 000:406.337 - 0.026ms returns 0
T697C 000:406.352 JLINK_WriteReg(R1, 0x00000400)
T697C 000:406.367 - 0.021ms returns 0
T697C 000:406.382 JLINK_WriteReg(R2, 0x20000164)
T697C 000:406.397 - 0.022ms returns 0
T697C 000:406.411 JLINK_WriteReg(R3, 0x00000000)
T697C 000:406.426 - 0.021ms returns 0
T697C 000:406.440 JLINK_WriteReg(R4, 0x00000000)
T697C 000:406.454 - 0.020ms returns 0
T697C 000:406.469 JLINK_WriteReg(R5, 0x00000000)
T697C 000:406.483 - 0.021ms returns 0
T697C 000:406.498 JLINK_WriteReg(R6, 0x00000000)
T697C 000:406.516 - 0.046ms returns 0
T697C 000:406.576 JLINK_WriteReg(R7, 0x00000000)
T697C 000:406.595 - 0.039ms returns 0
T697C 000:406.640 JLINK_WriteReg(R8, 0x00000000)
T697C 000:406.654 - 0.021ms returns 0
T697C 000:406.670 JLINK_WriteReg(R9, 0x20000160)
T697C 000:406.683 - 0.020ms returns 0
T697C 000:406.698 JLINK_WriteReg(R10, 0x00000000)
T697C 000:406.712 - 0.021ms returns 0
T697C 000:406.727 JLINK_WriteReg(R11, 0x00000000)
T697C 000:406.741 - 0.021ms returns 0
T697C 000:406.756 JLINK_WriteReg(R12, 0x00000000)
T697C 000:406.770 - 0.022ms returns 0
T697C 000:406.786 JLINK_WriteReg(R13 (SP), 0x20001000)
T697C 000:406.801 - 0.022ms returns 0
T697C 000:406.816 JLINK_WriteReg(R14, 0x20000001)
T697C 000:406.830 - 0.022ms returns 0
T697C 000:406.845 JLINK_WriteReg(R15 (PC), 0x200000F4)
T697C 000:406.860 - 0.022ms returns 0
T697C 000:406.875 JLINK_WriteReg(XPSR, 0x01000000)
T697C 000:406.890 - 0.022ms returns 0
T697C 000:406.905 JLINK_WriteReg(MSP, 0x20001000)
T697C 000:406.919 - 0.020ms returns 0
T697C 000:406.933 JLINK_WriteReg(PSP, 0x20001000)
T697C 000:407.011 - 0.085ms returns 0
T697C 000:407.028 JLINK_WriteReg(CFBP, 0x00000000)
T697C 000:407.043 - 0.022ms returns 0
T697C 000:407.058 JLINK_SetBPEx(Addr = 0x20000000, Type = 0xFFFFFFF2)
T697C 000:407.074 - 0.023ms returns 0x00000005
T697C 000:407.089 JLINK_Go()
T697C 000:407.113   CPU_ReadMem(4 bytes @ 0xE0001000)
T697C 000:409.520 - 2.572ms
T697C 000:409.688 JLINK_IsHalted()
T697C 000:410.194 - 0.549ms returns FALSE
T697C 000:410.283 JLINK_HasError()
T697C 000:417.463 JLINK_IsHalted()
T697C 000:417.746 - 0.295ms returns FALSE
T697C 000:417.769 JLINK_HasError()
T697C 000:419.455 JLINK_IsHalted()
T697C 000:419.697 - 0.253ms returns FALSE
T697C 000:419.717 JLINK_HasError()
T697C 000:421.752 JLINK_IsHalted()
T697C 000:421.985 - 0.243ms returns FALSE
T697C 000:422.004 JLINK_HasError()
T697C 000:424.036 JLINK_IsHalted()
T697C 000:424.271 - 0.245ms returns FALSE
T697C 000:424.290 JLINK_HasError()
T697C 000:425.972 JLINK_IsHalted()
T697C 000:426.294 - 0.336ms returns FALSE
T697C 000:426.319 JLINK_HasError()
T697C 000:428.301 JLINK_IsHalted()
T697C 000:428.603 - 0.317ms returns FALSE
T697C 000:428.629 JLINK_HasError()
T697C 000:430.675 JLINK_IsHalted()
T697C 000:430.964 - 0.317ms returns FALSE
T697C 000:431.018 JLINK_HasError()
T697C 000:432.603 JLINK_IsHalted()
T697C 000:433.087 - 0.508ms returns FALSE
T697C 000:433.123 JLINK_HasError()
T697C 000:437.017 JLINK_IsHalted()
T697C 000:437.342 - 0.340ms returns FALSE
T697C 000:437.381 JLINK_HasError()
T697C 000:438.905 JLINK_IsHalted()
T697C 000:439.201 - 0.307ms returns FALSE
T697C 000:439.222 JLINK_HasError()
T697C 000:441.221 JLINK_IsHalted()
T697C 000:443.577   CPU_ReadMem(2 bytes @ 0x20000000)
T697C 000:444.020 - 2.830ms returns TRUE
T697C 000:444.065 JLINK_ReadReg(R15 (PC))
T697C 000:444.085 - 0.027ms returns 0x20000000
T697C 000:444.102 JLINK_ClrBPEx(BPHandle = 0x00000005)
T697C 000:444.118 - 0.023ms returns 0x00
T697C 000:444.134 JLINK_ReadReg(R0)
T697C 000:444.150 - 0.023ms returns 0x00000000
T697C 000:444.639 JLINK_WriteMem(0x20000164, 0x29C Bytes, ...)
T697C 000:444.670   Data:  01 21 32 48 01 F0 B7 FA C0 20 AD F8 20 00 18 20 ...
T697C 000:444.703   CPU_WriteMem(668 bytes @ 0x20000164)
T697C 000:447.505 - 2.914ms returns 0x29C
T697C 000:447.569 JLINK_WriteMem(0x20000400, 0x164 Bytes, ...)
T697C 000:447.586   Data:  10 21 94 48 01 F0 2B F9 98 49 08 70 20 21 91 48 ...
T697C 000:447.621   CPU_WriteMem(356 bytes @ 0x20000400)
T697C 000:449.554 - 2.027ms returns 0x164
T697C 000:449.613 JLINK_HasError()
T697C 000:449.632 JLINK_WriteReg(R0, 0x08000400)
T697C 000:449.653 - 0.028ms returns 0
T697C 000:449.669 JLINK_WriteReg(R1, 0x00000400)
T697C 000:449.686 - 0.024ms returns 0
T697C 000:449.702 JLINK_WriteReg(R2, 0x20000164)
T697C 000:449.717 - 0.023ms returns 0
T697C 000:449.734 JLINK_WriteReg(R3, 0x00000000)
T697C 000:449.749 - 0.022ms returns 0
T697C 000:449.765 JLINK_WriteReg(R4, 0x00000000)
T697C 000:449.781 - 0.023ms returns 0
T697C 000:449.797 JLINK_WriteReg(R5, 0x00000000)
T697C 000:449.813 - 0.024ms returns 0
T697C 000:449.829 JLINK_WriteReg(R6, 0x00000000)
T697C 000:449.844 - 0.023ms returns 0
T697C 000:449.860 JLINK_WriteReg(R7, 0x00000000)
T697C 000:449.875 - 0.022ms returns 0
T697C 000:449.891 JLINK_WriteReg(R8, 0x00000000)
T697C 000:449.907 - 0.022ms returns 0
T697C 000:449.922 JLINK_WriteReg(R9, 0x20000160)
T697C 000:449.938 - 0.023ms returns 0
T697C 000:449.954 JLINK_WriteReg(R10, 0x00000000)
T697C 000:449.970 - 0.023ms returns 0
T697C 000:449.986 JLINK_WriteReg(R11, 0x00000000)
T697C 000:450.001 - 0.022ms returns 0
T697C 000:450.017 JLINK_WriteReg(R12, 0x00000000)
T697C 000:450.032 - 0.023ms returns 0
T697C 000:450.048 JLINK_WriteReg(R13 (SP), 0x20001000)
T697C 000:450.065 - 0.024ms returns 0
T697C 000:450.081 JLINK_WriteReg(R14, 0x20000001)
T697C 000:450.096 - 0.023ms returns 0
T697C 000:450.112 JLINK_WriteReg(R15 (PC), 0x200000F4)
T697C 000:450.127 - 0.022ms returns 0
T697C 000:450.144 JLINK_WriteReg(XPSR, 0x01000000)
T697C 000:450.159 - 0.026ms returns 0
T697C 000:450.182 JLINK_WriteReg(MSP, 0x20001000)
T697C 000:450.199 - 0.024ms returns 0
T697C 000:450.215 JLINK_WriteReg(PSP, 0x20001000)
T697C 000:450.231 - 0.024ms returns 0
T697C 000:450.248 JLINK_WriteReg(CFBP, 0x00000000)
T697C 000:450.263 - 0.022ms returns 0
T697C 000:450.279 JLINK_SetBPEx(Addr = 0x20000000, Type = 0xFFFFFFF2)
T697C 000:450.295 - 0.024ms returns 0x00000006
T697C 000:450.312 JLINK_Go()
T697C 000:450.336   CPU_ReadMem(4 bytes @ 0xE0001000)
T697C 000:453.514 - 3.244ms
T697C 000:453.571 JLINK_IsHalted()
T697C 000:454.362 - 0.833ms returns FALSE
T697C 000:454.419 JLINK_HasError()
T697C 000:455.645 JLINK_IsHalted()
T697C 000:456.115 - 0.497ms returns FALSE
T697C 000:456.155 JLINK_HasError()
T697C 000:457.645 JLINK_IsHalted()
T697C 000:458.134 - 0.515ms returns FALSE
T697C 000:458.173 JLINK_HasError()
T697C 000:459.504 JLINK_IsHalted()
T697C 000:460.316 - 0.853ms returns FALSE
T697C 000:460.373 JLINK_HasError()
T697C 000:461.624 JLINK_IsHalted()
T697C 000:462.104 - 0.502ms returns FALSE
T697C 000:462.139 JLINK_HasError()
T697C 000:463.636 JLINK_IsHalted()
T697C 000:464.212 - 0.607ms returns FALSE
T697C 000:464.259 JLINK_HasError()
T697C 000:465.643 JLINK_IsHalted()
T697C 000:466.113 - 0.499ms returns FALSE
T697C 000:466.157 JLINK_HasError()
T697C 000:467.621 JLINK_IsHalted()
T697C 000:468.089 - 0.495ms returns FALSE
T697C 000:468.130 JLINK_HasError()
T697C 000:469.581 JLINK_IsHalted()
T697C 000:470.077 - 0.542ms returns FALSE
T697C 000:470.141 JLINK_HasError()
T697C 000:471.378 JLINK_IsHalted()
T697C 000:471.898 - 0.565ms returns FALSE
T697C 000:471.961 JLINK_HasError()
T697C 000:473.192 JLINK_IsHalted()
T697C 000:474.057 - 0.914ms returns FALSE
T697C 000:474.126 JLINK_HasError()
T697C 000:476.118 JLINK_IsHalted()
T697C 000:476.595 - 0.512ms returns FALSE
T697C 000:476.649 JLINK_HasError()
T697C 000:478.805 JLINK_IsHalted()
T697C 000:479.216 - 0.450ms returns FALSE
T697C 000:479.274 JLINK_HasError()
T697C 000:480.757 JLINK_IsHalted()
T697C 000:481.471 - 0.760ms returns FALSE
T697C 000:481.541 JLINK_HasError()
T697C 000:483.662 JLINK_IsHalted()
T697C 000:486.758   CPU_ReadMem(2 bytes @ 0x20000000)
T697C 000:487.487 - 3.876ms returns TRUE
T697C 000:487.566 JLINK_ReadReg(R15 (PC))
T697C 000:487.602 - 0.050ms returns 0x20000000
T697C 000:487.634 JLINK_ClrBPEx(BPHandle = 0x00000006)
T697C 000:487.664 - 0.044ms returns 0x00
T697C 000:487.695 JLINK_ReadReg(R0)
T697C 000:487.723 - 0.042ms returns 0x00000000
T697C 000:488.441 JLINK_WriteMem(0x20000164, 0x29C Bytes, ...)
T697C 000:488.504   Data:  02 00 41 49 89 79 43 4A 92 F9 06 20 01 FB 02 00 ...
T697C 000:488.566   CPU_WriteMem(668 bytes @ 0x20000164)
T697C 000:491.402 - 3.026ms returns 0x29C
T697C 000:491.507 JLINK_WriteMem(0x20000400, 0x164 Bytes, ...)
T697C 000:491.561   Data:  45 49 89 79 08 44 44 49 C9 79 08 44 C5 B2 04 2D ...
T697C 000:491.628   CPU_WriteMem(356 bytes @ 0x20000400)
T697C 000:493.616 - 2.170ms returns 0x164
T697C 000:493.705 JLINK_HasError()
T697C 000:493.743 JLINK_WriteReg(R0, 0x08000800)
T697C 000:493.782 - 0.055ms returns 0
T697C 000:493.818 JLINK_WriteReg(R1, 0x00000400)
T697C 000:493.852 - 0.050ms returns 0
T697C 000:493.885 JLINK_WriteReg(R2, 0x20000164)
T697C 000:493.920 - 0.050ms returns 0
T697C 000:493.953 JLINK_WriteReg(R3, 0x00000000)
T697C 000:494.005 - 0.071ms returns 0
T697C 000:494.045 JLINK_WriteReg(R4, 0x00000000)
T697C 000:494.083 - 0.056ms returns 0
T697C 000:494.124 JLINK_WriteReg(R5, 0x00000000)
T697C 000:494.163 - 0.058ms returns 0
T697C 000:494.203 JLINK_WriteReg(R6, 0x00000000)
T697C 000:494.244 - 0.059ms returns 0
T697C 000:494.284 JLINK_WriteReg(R7, 0x00000000)
T697C 000:494.323 - 0.058ms returns 0
T697C 000:494.364 JLINK_WriteReg(R8, 0x00000000)
T697C 000:494.402 - 0.056ms returns 0
T697C 000:494.443 JLINK_WriteReg(R9, 0x20000160)
T697C 000:494.481 - 0.057ms returns 0
T697C 000:494.521 JLINK_WriteReg(R10, 0x00000000)
T697C 000:494.570 - 0.077ms returns 0
T697C 000:494.635 JLINK_WriteReg(R11, 0x00000000)
T697C 000:494.714 - 0.107ms returns 0
T697C 000:494.766 JLINK_WriteReg(R12, 0x00000000)
T697C 000:494.805 - 0.059ms returns 0
T697C 000:494.849 JLINK_WriteReg(R13 (SP), 0x20001000)
T697C 000:494.890 - 0.060ms returns 0
T697C 000:494.931 JLINK_WriteReg(R14, 0x20000001)
T697C 000:494.972 - 0.060ms returns 0
T697C 000:495.012 JLINK_WriteReg(R15 (PC), 0x200000F4)
T697C 000:495.054 - 0.060ms returns 0
T697C 000:495.094 JLINK_WriteReg(XPSR, 0x01000000)
T697C 000:495.132 - 0.059ms returns 0
T697C 000:495.175 JLINK_WriteReg(MSP, 0x20001000)
T697C 000:495.213 - 0.057ms returns 0
T697C 000:495.253 JLINK_WriteReg(PSP, 0x20001000)
T697C 000:495.295 - 0.061ms returns 0
T697C 000:495.335 JLINK_WriteReg(CFBP, 0x00000000)
T697C 000:495.376 - 0.059ms returns 0
T697C 000:495.416 JLINK_SetBPEx(Addr = 0x20000000, Type = 0xFFFFFFF2)
T697C 000:495.458 - 0.062ms returns 0x00000007
T697C 000:495.501 JLINK_Go()
T697C 000:495.593   CPU_ReadMem(4 bytes @ 0xE0001000)
T697C 000:498.821 - 3.390ms
T697C 000:498.927 JLINK_IsHalted()
T697C 000:499.393 - 0.521ms returns FALSE
T697C 000:499.480 JLINK_HasError()
T697C 000:501.097 JLINK_IsHalted()
T697C 000:501.701 - 0.658ms returns FALSE
T697C 000:501.785 JLINK_HasError()
T697C 000:502.968 JLINK_IsHalted()
T697C 000:503.547 - 0.624ms returns FALSE
T697C 000:503.624 JLINK_HasError()
T697C 000:504.823 JLINK_IsHalted()
T697C 000:505.393 - 0.615ms returns FALSE
T697C 000:505.469 JLINK_HasError()
T697C 000:506.663 JLINK_IsHalted()
T697C 000:507.229 - 0.610ms returns FALSE
T697C 000:507.303 JLINK_HasError()
T697C 000:508.460 JLINK_IsHalted()
T697C 000:508.990 - 0.600ms returns FALSE
T697C 000:509.093 JLINK_HasError()
T697C 000:510.664 JLINK_IsHalted()
T697C 000:511.230 - 0.615ms returns FALSE
T697C 000:511.310 JLINK_HasError()
T697C 000:513.387 JLINK_IsHalted()
T697C 000:513.952 - 0.609ms returns FALSE
T697C 000:514.031 JLINK_HasError()
T697C 000:515.260 JLINK_IsHalted()
T697C 000:515.849 - 0.632ms returns FALSE
T697C 000:515.923 JLINK_HasError()
T697C 000:517.153 JLINK_IsHalted()
T697C 000:517.721 - 0.612ms returns FALSE
T697C 000:517.794 JLINK_HasError()
T697C 000:519.068 JLINK_IsHalted()
T697C 000:519.567 - 0.550ms returns FALSE
T697C 000:519.651 JLINK_HasError()
T697C 000:521.061 JLINK_IsHalted()
T697C 000:521.718 - 0.712ms returns FALSE
T697C 000:521.805 JLINK_HasError()
T697C 000:523.014 JLINK_IsHalted()
T697C 000:523.591 - 0.622ms returns FALSE
T697C 000:523.666 JLINK_HasError()
T697C 000:525.905 JLINK_IsHalted()
T697C 000:526.502 - 0.649ms returns FALSE
T697C 000:526.593 JLINK_HasError()
T697C 000:530.850 JLINK_IsHalted()
T697C 000:533.494   CPU_ReadMem(2 bytes @ 0x20000000)
T697C 000:534.090 - 3.293ms returns TRUE
T697C 000:534.176 JLINK_ReadReg(R15 (PC))
T697C 000:534.224 - 0.068ms returns 0x20000000
T697C 000:534.267 JLINK_ClrBPEx(BPHandle = 0x00000007)
T697C 000:534.310 - 0.062ms returns 0x00
T697C 000:534.351 JLINK_ReadReg(R0)
T697C 000:534.392 - 0.059ms returns 0x00000000
T697C 000:535.369 JLINK_WriteMem(0x20000164, 0x29C Bytes, ...)
T697C 000:535.436   Data:  E9 FD 40 20 AD F8 00 00 10 20 8D F8 03 00 03 20 ...
T697C 000:535.511   CPU_WriteMem(668 bytes @ 0x20000164)
T697C 000:538.582 - 3.285ms returns 0x29C
T697C 000:538.688 JLINK_WriteMem(0x20000400, 0x164 Bytes, ...)
T697C 000:538.733   Data:  00 20 AD F8 00 00 0F 20 AD F8 08 00 69 46 4F F0 ...
T697C 000:538.812   CPU_WriteMem(356 bytes @ 0x20000400)
T697C 000:540.820 - 2.220ms returns 0x164
T697C 000:540.950 JLINK_HasError()
T697C 000:540.998 JLINK_WriteReg(R0, 0x08000C00)
T697C 000:541.055 - 0.077ms returns 0
T697C 000:541.100 JLINK_WriteReg(R1, 0x00000400)
T697C 000:541.145 - 0.065ms returns 0
T697C 000:541.191 JLINK_WriteReg(R2, 0x20000164)
T697C 000:541.236 - 0.068ms returns 0
T697C 000:541.287 JLINK_WriteReg(R3, 0x00000000)
T697C 000:541.335 - 0.069ms returns 0
T697C 000:541.379 JLINK_WriteReg(R4, 0x00000000)
T697C 000:541.420 - 0.059ms returns 0
T697C 000:541.462 JLINK_WriteReg(R5, 0x00000000)
T697C 000:541.500 - 0.058ms returns 0
T697C 000:541.544 JLINK_WriteReg(R6, 0x00000000)
T697C 000:541.597 - 0.072ms returns 0
T697C 000:541.641 JLINK_WriteReg(R7, 0x00000000)
T697C 000:541.681 - 0.058ms returns 0
T697C 000:541.722 JLINK_WriteReg(R8, 0x00000000)
T697C 000:541.764 - 0.060ms returns 0
T697C 000:541.804 JLINK_WriteReg(R9, 0x20000160)
T697C 000:541.899 - 0.118ms returns 0
T697C 000:541.955 JLINK_WriteReg(R10, 0x00000000)
T697C 000:542.005 - 0.070ms returns 0
T697C 000:542.049 JLINK_WriteReg(R11, 0x00000000)
T697C 000:542.103 - 0.077ms returns 0
T697C 000:542.150 JLINK_WriteReg(R12, 0x00000000)
T697C 000:542.193 - 0.062ms returns 0
T697C 000:542.236 JLINK_WriteReg(R13 (SP), 0x20001000)
T697C 000:542.277 - 0.061ms returns 0
T697C 000:542.322 JLINK_WriteReg(R14, 0x20000001)
T697C 000:542.363 - 0.060ms returns 0
T697C 000:542.406 JLINK_WriteReg(R15 (PC), 0x200000F4)
T697C 000:542.447 - 0.060ms returns 0
T697C 000:542.490 JLINK_WriteReg(XPSR, 0x01000000)
T697C 000:542.532 - 0.062ms returns 0
T697C 000:542.576 JLINK_WriteReg(MSP, 0x20001000)
T697C 000:542.617 - 0.061ms returns 0
T697C 000:542.660 JLINK_WriteReg(PSP, 0x20001000)
T697C 000:542.718 - 0.087ms returns 0
T697C 000:542.780 JLINK_WriteReg(CFBP, 0x00000000)
T697C 000:542.836 - 0.075ms returns 0
T697C 000:542.879 JLINK_SetBPEx(Addr = 0x20000000, Type = 0xFFFFFFF2)
T697C 000:542.923 - 0.064ms returns 0x00000008
T697C 000:542.966 JLINK_Go()
T697C 000:543.037   CPU_ReadMem(4 bytes @ 0xE0001000)
T697C 000:545.520 - 2.573ms
T697C 000:545.553 JLINK_IsHalted()
T697C 000:545.937 - 0.399ms returns FALSE
T697C 000:545.965 JLINK_HasError()
T697C 000:548.943 JLINK_IsHalted()
T697C 000:549.369 - 0.454ms returns FALSE
T697C 000:549.411 JLINK_HasError()
T697C 000:551.266 JLINK_IsHalted()
T697C 000:551.817 - 0.569ms returns FALSE
T697C 000:551.848 JLINK_HasError()
T697C 000:553.206 JLINK_IsHalted()
T697C 000:554.045 - 0.879ms returns FALSE
T697C 000:554.101 JLINK_HasError()
T697C 000:555.385 JLINK_IsHalted()
T697C 000:555.862 - 0.507ms returns FALSE
T697C 000:555.905 JLINK_HasError()
T697C 000:557.246 JLINK_IsHalted()
T697C 000:557.762 - 0.561ms returns FALSE
T697C 000:557.838 JLINK_HasError()
T697C 000:560.081 JLINK_IsHalted()
T697C 000:560.539 - 0.492ms returns FALSE
T697C 000:560.587 JLINK_HasError()
T697C 000:562.739 JLINK_IsHalted()
T697C 000:563.178 - 0.467ms returns FALSE
T697C 000:563.219 JLINK_HasError()
T697C 000:564.373 JLINK_IsHalted()
T697C 000:564.831 - 0.493ms returns FALSE
T697C 000:564.880 JLINK_HasError()
T697C 000:566.056 JLINK_IsHalted()
T697C 000:566.726 - 0.705ms returns FALSE
T697C 000:566.775 JLINK_HasError()
T697C 000:569.143 JLINK_IsHalted()
T697C 000:569.519 - 0.402ms returns FALSE
T697C 000:569.558 JLINK_HasError()
T697C 000:571.368 JLINK_IsHalted()
T697C 000:571.828 - 0.488ms returns FALSE
T697C 000:571.869 JLINK_HasError()
T697C 000:573.344 JLINK_IsHalted()
T697C 000:573.839 - 0.517ms returns FALSE
T697C 000:573.874 JLINK_HasError()
T697C 000:576.063 JLINK_IsHalted()
T697C 000:578.394   CPU_ReadMem(2 bytes @ 0x20000000)
T697C 000:578.831 - 2.813ms returns TRUE
T697C 000:578.892 JLINK_ReadReg(R15 (PC))
T697C 000:578.927 - 0.042ms returns 0x20000000
T697C 000:578.943 JLINK_ClrBPEx(BPHandle = 0x00000008)
T697C 000:578.960 - 0.023ms returns 0x00
T697C 000:578.976 JLINK_ReadReg(R0)
T697C 000:578.991 - 0.022ms returns 0x00000000
T697C 000:579.464 JLINK_WriteMem(0x20000164, 0x29C Bytes, ...)
T697C 000:579.496   Data:  20 46 FF F7 CE FF FF F7 BB FF 10 BD 10 B5 04 46 ...
T697C 000:579.529   CPU_WriteMem(668 bytes @ 0x20000164)
T697C 000:582.308 - 2.899ms returns 0x29C
T697C 000:582.392 JLINK_WriteMem(0x20000400, 0x164 Bytes, ...)
T697C 000:582.408   Data:  FF F7 A6 FE 00 20 FF F7 A3 FE 40 20 FF F7 A0 FE ...
T697C 000:582.439   CPU_WriteMem(356 bytes @ 0x20000400)
T697C 000:584.254 - 1.897ms returns 0x164
T697C 000:584.304 JLINK_HasError()
T697C 000:584.321 JLINK_WriteReg(R0, 0x08001000)
T697C 000:584.340 - 0.026ms returns 0
T697C 000:584.356 JLINK_WriteReg(R1, 0x00000400)
T697C 000:584.373 - 0.023ms returns 0
T697C 000:584.391 JLINK_WriteReg(R2, 0x20000164)
T697C 000:584.409 - 0.025ms returns 0
T697C 000:584.424 JLINK_WriteReg(R3, 0x00000000)
T697C 000:584.438 - 0.021ms returns 0
T697C 000:584.454 JLINK_WriteReg(R4, 0x00000000)
T697C 000:584.468 - 0.021ms returns 0
T697C 000:584.483 JLINK_WriteReg(R5, 0x00000000)
T697C 000:584.498 - 0.022ms returns 0
T697C 000:584.513 JLINK_WriteReg(R6, 0x00000000)
T697C 000:584.528 - 0.022ms returns 0
T697C 000:584.543 JLINK_WriteReg(R7, 0x00000000)
T697C 000:584.557 - 0.021ms returns 0
T697C 000:584.572 JLINK_WriteReg(R8, 0x00000000)
T697C 000:584.587 - 0.021ms returns 0
T697C 000:584.601 JLINK_WriteReg(R9, 0x20000160)
T697C 000:584.616 - 0.021ms returns 0
T697C 000:584.631 JLINK_WriteReg(R10, 0x00000000)
T697C 000:584.646 - 0.022ms returns 0
T697C 000:584.661 JLINK_WriteReg(R11, 0x00000000)
T697C 000:584.675 - 0.021ms returns 0
T697C 000:584.691 JLINK_WriteReg(R12, 0x00000000)
T697C 000:584.706 - 0.022ms returns 0
T697C 000:584.721 JLINK_WriteReg(R13 (SP), 0x20001000)
T697C 000:584.737 - 0.023ms returns 0
T697C 000:584.752 JLINK_WriteReg(R14, 0x20000001)
T697C 000:584.767 - 0.021ms returns 0
T697C 000:584.782 JLINK_WriteReg(R15 (PC), 0x200000F4)
T697C 000:584.796 - 0.021ms returns 0
T697C 000:584.811 JLINK_WriteReg(XPSR, 0x01000000)
T697C 000:584.826 - 0.021ms returns 0
T697C 000:584.841 JLINK_WriteReg(MSP, 0x20001000)
T697C 000:584.856 - 0.022ms returns 0
T697C 000:584.871 JLINK_WriteReg(PSP, 0x20001000)
T697C 000:584.886 - 0.022ms returns 0
T697C 000:584.901 JLINK_WriteReg(CFBP, 0x00000000)
T697C 000:584.915 - 0.021ms returns 0
T697C 000:584.931 JLINK_SetBPEx(Addr = 0x20000000, Type = 0xFFFFFFF2)
T697C 000:584.947 - 0.022ms returns 0x00000009
T697C 000:584.962 JLINK_Go()
T697C 000:584.985   CPU_ReadMem(4 bytes @ 0xE0001000)
T697C 000:588.072 - 3.145ms
T697C 000:588.120 JLINK_IsHalted()
T697C 000:588.920 - 0.850ms returns FALSE
T697C 000:588.987 JLINK_HasError()
T697C 000:590.795 JLINK_IsHalted()
T697C 000:591.204 - 0.459ms returns FALSE
T697C 000:591.268 JLINK_HasError()
T697C 000:593.373 JLINK_IsHalted()
T697C 000:594.053 - 0.716ms returns FALSE
T697C 000:594.106 JLINK_HasError()
T697C 000:595.365 JLINK_IsHalted()
T697C 000:596.051 - 0.722ms returns FALSE
T697C 000:596.105 JLINK_HasError()
T697C 000:597.360 JLINK_IsHalted()
T697C 000:598.059 - 0.738ms returns FALSE
T697C 000:598.118 JLINK_HasError()
T697C 000:600.160 JLINK_IsHalted()
T697C 000:600.633 - 0.491ms returns FALSE
T697C 000:600.666 JLINK_HasError()
T697C 000:602.122 JLINK_IsHalted()
T697C 000:602.500 - 0.398ms returns FALSE
T697C 000:602.534 JLINK_HasError()
T697C 000:604.126 JLINK_IsHalted()
T697C 000:604.499 - 0.392ms returns FALSE
T697C 000:604.532 JLINK_HasError()
T697C 000:606.171 JLINK_IsHalted()
T697C 000:606.564 - 0.411ms returns FALSE
T697C 000:606.596 JLINK_HasError()
T697C 000:608.653 JLINK_IsHalted()
T697C 000:609.058 - 0.426ms returns FALSE
T697C 000:609.094 JLINK_HasError()
T697C 000:611.118 JLINK_IsHalted()
T697C 000:611.555 - 0.458ms returns FALSE
T697C 000:611.591 JLINK_HasError()
T697C 000:613.567 JLINK_IsHalted()
T697C 000:614.037 - 0.500ms returns FALSE
T697C 000:614.086 JLINK_HasError()
T697C 000:615.562 JLINK_IsHalted()
T697C 000:616.048 - 0.512ms returns FALSE
T697C 000:616.092 JLINK_HasError()
T697C 000:617.356 JLINK_IsHalted()
T697C 000:617.846 - 0.520ms returns FALSE
T697C 000:617.895 JLINK_HasError()
T697C 000:619.155 JLINK_IsHalted()
T697C 000:622.614   CPU_ReadMem(2 bytes @ 0x20000000)
T697C 000:623.139 - 4.033ms returns TRUE
T697C 000:623.213 JLINK_ReadReg(R15 (PC))
T697C 000:623.244 - 0.043ms returns 0x20000000
T697C 000:623.272 JLINK_ClrBPEx(BPHandle = 0x00000009)
T697C 000:623.298 - 0.038ms returns 0x00
T697C 000:623.403 JLINK_ReadReg(R0)
T697C 000:623.447 - 0.055ms returns 0x00000000
T697C 000:624.073 JLINK_WriteMem(0x20000164, 0x29C Bytes, ...)
T697C 000:624.117   Data:  10 B5 6F F0 04 00 00 F0 66 F9 2E 48 00 68 2E 49 ...
T697C 000:624.166   CPU_WriteMem(668 bytes @ 0x20000164)
T697C 000:627.022 - 3.005ms returns 0x29C
T697C 000:627.103 JLINK_WriteMem(0x20000400, 0x164 Bytes, ...)
T697C 000:627.129   Data:  06 78 76 11 45 F8 26 40 70 BD 1A 4A 0A 40 02 43 ...
T697C 000:627.177   CPU_WriteMem(356 bytes @ 0x20000400)
T697C 000:629.150 - 2.097ms returns 0x164
T697C 000:629.223 JLINK_HasError()
T697C 000:629.251 JLINK_WriteReg(R0, 0x08001400)
T697C 000:629.297 - 0.059ms returns 0
T697C 000:629.325 JLINK_WriteReg(R1, 0x00000400)
T697C 000:629.354 - 0.041ms returns 0
T697C 000:629.381 JLINK_WriteReg(R2, 0x20000164)
T697C 000:629.409 - 0.041ms returns 0
T697C 000:629.437 JLINK_WriteReg(R3, 0x00000000)
T697C 000:629.464 - 0.040ms returns 0
T697C 000:629.493 JLINK_WriteReg(R4, 0x00000000)
T697C 000:629.519 - 0.039ms returns 0
T697C 000:629.546 JLINK_WriteReg(R5, 0x00000000)
T697C 000:629.574 - 0.041ms returns 0
T697C 000:629.602 JLINK_WriteReg(R6, 0x00000000)
T697C 000:629.629 - 0.040ms returns 0
T697C 000:629.656 JLINK_WriteReg(R7, 0x00000000)
T697C 000:629.682 - 0.041ms returns 0
T697C 000:629.713 JLINK_WriteReg(R8, 0x00000000)
T697C 000:629.739 - 0.039ms returns 0
T697C 000:629.766 JLINK_WriteReg(R9, 0x20000160)
T697C 000:629.794 - 0.040ms returns 0
T697C 000:629.822 JLINK_WriteReg(R10, 0x00000000)
T697C 000:629.850 - 0.041ms returns 0
T697C 000:629.877 JLINK_WriteReg(R11, 0x00000000)
T697C 000:629.904 - 0.040ms returns 0
T697C 000:629.933 JLINK_WriteReg(R12, 0x00000000)
T697C 000:629.960 - 0.039ms returns 0
T697C 000:629.987 JLINK_WriteReg(R13 (SP), 0x20001000)
T697C 000:630.016 - 0.042ms returns 0
T697C 000:630.043 JLINK_WriteReg(R14, 0x20000001)
T697C 000:630.071 - 0.041ms returns 0
T697C 000:630.098 JLINK_WriteReg(R15 (PC), 0x200000F4)
T697C 000:630.131 - 0.047ms returns 0
T697C 000:630.161 JLINK_WriteReg(XPSR, 0x01000000)
T697C 000:630.187 - 0.039ms returns 0
T697C 000:630.215 JLINK_WriteReg(MSP, 0x20001000)
T697C 000:630.242 - 0.039ms returns 0
T697C 000:630.269 JLINK_WriteReg(PSP, 0x20001000)
T697C 000:630.297 - 0.040ms returns 0
T697C 000:630.324 JLINK_WriteReg(CFBP, 0x00000000)
T697C 000:630.351 - 0.040ms returns 0
T697C 000:630.379 JLINK_SetBPEx(Addr = 0x20000000, Type = 0xFFFFFFF2)
T697C 000:630.408 - 0.041ms returns 0x0000000A
T697C 000:630.437 JLINK_Go()
T697C 000:630.477   CPU_ReadMem(4 bytes @ 0xE0001000)
T697C 000:633.623 - 3.240ms
T697C 000:633.700 JLINK_IsHalted()
T697C 000:634.155 - 0.498ms returns FALSE
T697C 000:634.220 JLINK_HasError()
T697C 000:635.417 JLINK_IsHalted()
T697C 000:635.923 - 0.552ms returns FALSE
T697C 000:635.992 JLINK_HasError()
T697C 000:637.409 JLINK_IsHalted()
T697C 000:637.902 - 0.528ms returns FALSE
T697C 000:637.959 JLINK_HasError()
T697C 000:639.163 JLINK_IsHalted()
T697C 000:639.733 - 0.624ms returns FALSE
T697C 000:639.811 JLINK_HasError()
T697C 000:640.976 JLINK_IsHalted()
T697C 000:641.444 - 0.511ms returns FALSE
T697C 000:641.511 JLINK_HasError()
T697C 000:642.979 JLINK_IsHalted()
T697C 000:643.485 - 0.554ms returns FALSE
T697C 000:643.555 JLINK_HasError()
T697C 000:644.782 JLINK_IsHalted()
T697C 000:645.254 - 0.503ms returns FALSE
T697C 000:645.306 JLINK_HasError()
T697C 000:646.778 JLINK_IsHalted()
T697C 000:647.265 - 0.517ms returns FALSE
T697C 000:647.317 JLINK_HasError()
T697C 000:648.786 JLINK_IsHalted()
T697C 000:649.302 - 0.549ms returns FALSE
T697C 000:649.361 JLINK_HasError()
T697C 000:650.639 JLINK_IsHalted()
T697C 000:651.071 - 0.470ms returns FALSE
T697C 000:651.130 JLINK_HasError()
T697C 000:655.449 JLINK_IsHalted()
T697C 000:655.914 - 0.483ms returns FALSE
T697C 000:655.943 JLINK_HasError()
T697C 000:657.710 JLINK_IsHalted()
T697C 000:658.184 - 0.504ms returns FALSE
T697C 000:658.227 JLINK_HasError()
T697C 000:659.482 JLINK_IsHalted()
T697C 000:659.955 - 0.498ms returns FALSE
T697C 000:659.993 JLINK_HasError()
T697C 000:661.231 JLINK_IsHalted()
T697C 000:661.754 - 0.563ms returns FALSE
T697C 000:661.810 JLINK_HasError()
T697C 000:663.040 JLINK_IsHalted()
T697C 000:663.510 - 0.490ms returns FALSE
T697C 000:663.543 JLINK_HasError()
T697C 000:665.031 JLINK_IsHalted()
T697C 000:667.478   CPU_ReadMem(2 bytes @ 0x20000000)
T697C 000:667.976 - 2.965ms returns TRUE
T697C 000:668.010 JLINK_ReadReg(R15 (PC))
T697C 000:668.030 - 0.026ms returns 0x20000000
T697C 000:668.045 JLINK_ClrBPEx(BPHandle = 0x0000000A)
T697C 000:668.060 - 0.022ms returns 0x00
T697C 000:668.076 JLINK_ReadReg(R0)
T697C 000:668.090 - 0.020ms returns 0x00000000
T697C 000:668.606 JLINK_WriteMem(0x20000164, 0x29C Bytes, ...)
T697C 000:668.639   Data:  4C EA 05 05 91 F8 00 C0 BC F1 00 0F 31 D0 14 68 ...
T697C 000:668.671   CPU_WriteMem(668 bytes @ 0x20000164)
T697C 000:671.544 - 2.978ms returns 0x29C
T697C 000:671.599 JLINK_WriteMem(0x20000400, 0x164 Bytes, ...)
T697C 000:671.615   Data:  08 60 08 46 40 68 20 F4 FE 00 48 60 4F F4 1F 00 ...
T697C 000:671.647   CPU_WriteMem(356 bytes @ 0x20000400)
T697C 000:673.514 - 1.956ms returns 0x164
T697C 000:673.570 JLINK_HasError()
T697C 000:673.588 JLINK_WriteReg(R0, 0x08001800)
T697C 000:673.608 - 0.026ms returns 0
T697C 000:673.623 JLINK_WriteReg(R1, 0x00000400)
T697C 000:673.638 - 0.022ms returns 0
T697C 000:673.653 JLINK_WriteReg(R2, 0x20000164)
T697C 000:673.667 - 0.022ms returns 0
T697C 000:673.682 JLINK_WriteReg(R3, 0x00000000)
T697C 000:673.696 - 0.020ms returns 0
T697C 000:673.711 JLINK_WriteReg(R4, 0x00000000)
T697C 000:673.726 - 0.021ms returns 0
T697C 000:673.740 JLINK_WriteReg(R5, 0x00000000)
T697C 000:673.755 - 0.022ms returns 0
T697C 000:673.771 JLINK_WriteReg(R6, 0x00000000)
T697C 000:673.785 - 0.021ms returns 0
T697C 000:673.800 JLINK_WriteReg(R7, 0x00000000)
T697C 000:673.814 - 0.020ms returns 0
T697C 000:673.829 JLINK_WriteReg(R8, 0x00000000)
T697C 000:673.844 - 0.022ms returns 0
T697C 000:673.858 JLINK_WriteReg(R9, 0x20000160)
T697C 000:673.873 - 0.021ms returns 0
T697C 000:673.888 JLINK_WriteReg(R10, 0x00000000)
T697C 000:673.902 - 0.021ms returns 0
T697C 000:673.917 JLINK_WriteReg(R11, 0x00000000)
